
Circuit: bjt regulator

                                 bjt regulator
                                 DC transfer characteristic  Thu Jan 20 16:56:32  2022
--------------------------------------------------------------------------------
Index   v-sweep         v(1)            v(2)-v(3)       v(2)-v(5)       
--------------------------------------------------------------------------------
0	1.500000e+01	1.500000e+01	6.951313e-01	5.399436e+00	
1	1.550000e+01	1.550000e+01	6.953644e-01	5.453898e+00	
2	1.600000e+01	1.600000e+01	6.955755e-01	5.507488e+00	
3	1.650000e+01	1.650000e+01	6.957842e-01	5.561067e+00	
4	1.700000e+01	1.700000e+01	6.959871e-01	5.614514e+00	
5	1.750000e+01	1.750000e+01	6.961849e-01	5.667895e+00	
6	1.800000e+01	1.800000e+01	6.963788e-01	5.721270e+00	
7	1.850000e+01	1.850000e+01	6.965693e-01	5.774687e+00	
8	1.900000e+01	1.900000e+01	6.967573e-01	5.828181e+00	
9	1.950000e+01	1.950000e+01	6.969431e-01	5.881783e+00	
10	2.000000e+01	2.000000e+01	6.971270e-01	5.935518e+00	
11	2.050000e+01	2.050000e+01	6.973096e-01	5.989406e+00	
12	2.100000e+01	2.100000e+01	6.974910e-01	6.043463e+00	
13	2.150000e+01	2.150000e+01	6.976714e-01	6.097704e+00	
14	2.200000e+01	2.200000e+01	6.978511e-01	6.152140e+00	
15	2.250000e+01	2.250000e+01	6.980301e-01	6.206782e+00	
16	2.300000e+01	2.300000e+01	6.982087e-01	6.261637e+00	
17	2.350000e+01	2.350000e+01	6.983870e-01	6.316714e+00	
18	2.400000e+01	2.400000e+01	6.985651e-01	6.372018e+00	
19	2.450000e+01	2.450000e+01	6.987430e-01	6.427554e+00	
20	2.500000e+01	2.500000e+01	6.989208e-01	6.483326e+00	

                                 bjt regulator
                                 DC transfer characteristic  Thu Jan 20 16:56:32  2022
--------------------------------------------------------------------------------
Index   v-sweep         v(1)-v(3)       v(1)-v(2)       v(2)-v(5)       
--------------------------------------------------------------------------------
0	1.500000e+01	3.817254e+00	3.122123e+00	5.399436e+00	
1	1.550000e+01	4.230682e+00	3.535318e+00	5.453898e+00	
2	1.600000e+01	4.647082e+00	3.951506e+00	5.507488e+00	
3	1.650000e+01	5.063768e+00	4.367983e+00	5.561067e+00	
4	1.700000e+01	5.481196e+00	4.785209e+00	5.614514e+00	
5	1.750000e+01	5.899230e+00	5.203045e+00	5.667895e+00	
6	1.800000e+01	6.317724e+00	5.621346e+00	5.721270e+00	
7	1.850000e+01	6.736568e+00	6.039999e+00	5.774687e+00	
8	1.900000e+01	7.155672e+00	6.458915e+00	5.828181e+00	
9	1.950000e+01	7.574965e+00	6.878022e+00	5.881783e+00	
10	2.000000e+01	7.994389e+00	7.297262e+00	5.935518e+00	
11	2.050000e+01	8.413893e+00	7.716583e+00	5.989406e+00	
12	2.100000e+01	8.833438e+00	8.135947e+00	6.043463e+00	
13	2.150000e+01	9.252988e+00	8.555317e+00	6.097704e+00	
14	2.200000e+01	9.672515e+00	8.974664e+00	6.152140e+00	
15	2.250000e+01	1.009199e+01	9.393963e+00	6.206782e+00	
16	2.300000e+01	1.051140e+01	9.813192e+00	6.261637e+00	
17	2.350000e+01	1.093072e+01	1.023233e+01	6.316714e+00	
18	2.400000e+01	1.134993e+01	1.065137e+01	6.372018e+00	
19	2.450000e+01	1.176903e+01	1.107029e+01	6.427554e+00	
20	2.500000e+01	1.218799e+01	1.148907e+01	6.483326e+00	

                                 bjt regulator
                                 DC transfer characteristic  Thu Jan 20 16:56:32  2022
--------------------------------------------------------------------------------
Index   v-sweep         v(5)-v(4)       v(3)-v(5)       v(3)            
--------------------------------------------------------------------------------
0	1.500000e+01	6.938369e-01	4.704305e+00	1.118275e+01	
1	1.550000e+01	6.989617e-01	4.758534e+00	1.126932e+01	
2	1.600000e+01	7.032726e-01	4.811913e+00	1.135292e+01	
3	1.650000e+01	7.074825e-01	4.865283e+00	1.143623e+01	
4	1.700000e+01	7.114590e-01	4.918527e+00	1.151880e+01	
5	1.750000e+01	7.152317e-01	4.971710e+00	1.160077e+01	
6	1.800000e+01	7.188341e-01	5.024892e+00	1.168228e+01	
7	1.850000e+01	7.222920e-01	5.078117e+00	1.176343e+01	
8	1.900000e+01	7.256256e-01	5.131424e+00	1.184433e+01	
9	1.950000e+01	7.288517e-01	5.184840e+00	1.192503e+01	
10	2.000000e+01	7.319837e-01	5.238391e+00	1.200561e+01	
11	2.050000e+01	7.350331e-01	5.292096e+00	1.208611e+01	
12	2.100000e+01	7.380094e-01	5.345972e+00	1.216656e+01	
13	2.150000e+01	7.409206e-01	5.400032e+00	1.224701e+01	
14	2.200000e+01	7.437738e-01	5.454289e+00	1.232749e+01	
15	2.250000e+01	7.465748e-01	5.508752e+00	1.240801e+01	
16	2.300000e+01	7.493289e-01	5.563429e+00	1.248860e+01	
17	2.350000e+01	7.520405e-01	5.618327e+00	1.256928e+01	
18	2.400000e+01	7.547137e-01	5.673453e+00	1.265007e+01	
19	2.450000e+01	7.573519e-01	5.728811e+00	1.273097e+01	
20	2.500000e+01	7.599583e-01	5.784405e+00	1.281201e+01	
